 v-sweep         in              out             v-sweep         v1#branch       vdd             vdd#branch      vmeas#branch    vss            
 0.00000000e+00  0.00000000e+00  1.19999058e+00  0.00000000e+00  0.00000000e+00  1.20000000e+00 -2.40185591e-08  2.40185591e-08  0.00000000e+00 
 1.00000000e-02  1.00000000e-02  1.19998760e+00  1.00000000e-02  0.00000000e+00  1.20000000e+00 -3.14342368e-08  3.14342368e-08  0.00000000e+00 
 2.00000000e-02  2.00000000e-02  1.19998367e+00  2.00000000e-02  0.00000000e+00  1.20000000e+00 -4.11463450e-08  4.11463450e-08  0.00000000e+00 
 3.00000000e-02  3.00000000e-02  1.19997849e+00  3.00000000e-02  0.00000000e+00  1.20000000e+00 -5.38665406e-08  5.38665406e-08  0.00000000e+00 
 4.00000000e-02  4.00000000e-02  1.19997166e+00  4.00000000e-02  0.00000000e+00  1.20000000e+00 -7.05261297e-08  7.05261297e-08  0.00000000e+00 
 5.00000000e-02  5.00000000e-02  1.19996266e+00  5.00000000e-02  0.00000000e+00  1.20000000e+00 -9.23428411e-08  9.23428411e-08  0.00000000e+00 
 6.00000000e-02  6.00000000e-02  1.19995079e+00  6.00000000e-02  0.00000000e+00  1.20000000e+00 -1.20907037e-07  1.20907037e-07  0.00000000e+00 
 7.00000000e-02  7.00000000e-02  1.19993515e+00  7.00000000e-02  0.00000000e+00  1.20000000e+00 -1.58292345e-07  1.58292345e-07  0.00000000e+00 
 8.00000000e-02  8.00000000e-02  1.19991453e+00  8.00000000e-02  0.00000000e+00  1.20000000e+00 -2.07196434e-07  2.07196434e-07  0.00000000e+00 
 9.00000000e-02  9.00000000e-02  1.19988738e+00  9.00000000e-02  0.00000000e+00  1.20000000e+00 -2.71118056e-07  2.71118056e-07  0.00000000e+00 
 1.00000000e-01  1.00000000e-01  1.19985166e+00  1.00000000e-01  0.00000000e+00  1.20000000e+00 -3.54576063e-07  3.54576063e-07  0.00000000e+00 
 1.10000000e-01  1.10000000e-01  1.19980473e+00  1.10000000e-01  0.00000000e+00  1.20000000e+00 -4.63374035e-07  4.63374035e-07  0.00000000e+00 
 1.20000000e-01  1.20000000e-01  1.19974316e+00  1.20000000e-01  0.00000000e+00  1.20000000e+00 -6.04909314e-07  6.04909314e-07  0.00000000e+00 
 1.30000000e-01  1.30000000e-01  1.19966263e+00  1.30000000e-01  0.00000000e+00  1.20000000e+00 -7.88515993e-07  7.88515993e-07  0.00000000e+00 
 1.40000000e-01  1.40000000e-01  1.19955763e+00  1.40000000e-01  0.00000000e+00  1.20000000e+00 -1.02581641e-06  1.02581641e-06  0.00000000e+00 
 1.50000000e-01  1.50000000e-01  1.19942135e+00  1.50000000e-01  0.00000000e+00  1.20000000e+00 -1.33103478e-06  1.33103478e-06  0.00000000e+00 
 1.60000000e-01  1.60000000e-01  1.19924549e+00  1.60000000e-01  0.00000000e+00  1.20000000e+00 -1.72120306e-06  1.72120306e-06  0.00000000e+00 
 1.70000000e-01  1.70000000e-01  1.19902018e+00  1.70000000e-01  0.00000000e+00  1.20000000e+00 -2.21617131e-06  2.21617131e-06  0.00000000e+00 
 1.80000000e-01  1.80000000e-01  1.19873404e+00  1.80000000e-01  0.00000000e+00  1.20000000e+00 -2.83833676e-06  2.83833676e-06  0.00000000e+00 
 1.90000000e-01  1.90000000e-01  1.19837432e+00  1.90000000e-01  0.00000000e+00  1.20000000e+00 -3.61203993e-06  3.61203993e-06  0.00000000e+00 
 2.00000000e-01  2.00000000e-01  1.19792723e+00  2.00000000e-01  0.00000000e+00  1.20000000e+00 -4.56264507e-06  4.56264507e-06  0.00000000e+00 
 2.10000000e-01  2.10000000e-01  1.19737841e+00  2.10000000e-01  0.00000000e+00  1.20000000e+00 -5.71540614e-06  5.71540614e-06  0.00000000e+00 
 2.20000000e-01  2.20000000e-01  1.19671338e+00  2.20000000e-01  0.00000000e+00  1.20000000e+00 -7.09428461e-06  7.09428461e-06  0.00000000e+00 
 2.30000000e-01  2.30000000e-01  1.19591796e+00  2.30000000e-01  0.00000000e+00  1.20000000e+00 -8.72090008e-06  8.72090008e-06  0.00000000e+00 
 2.40000000e-01  2.40000000e-01  1.19497863e+00  2.40000000e-01  0.00000000e+00  1.20000000e+00 -1.06137518e-05  1.06137518e-05  0.00000000e+00 
 2.50000000e-01  2.50000000e-01  1.19388271e+00  2.50000000e-01  0.00000000e+00  1.20000000e+00 -1.27877727e-05  1.27877727e-05  0.00000000e+00 
 2.60000000e-01  2.60000000e-01  1.19261838e+00  2.60000000e-01  0.00000000e+00  1.20000000e+00 -1.52541988e-05  1.52541988e-05  0.00000000e+00 
 2.70000000e-01  2.70000000e-01  1.19117465e+00  2.70000000e-01  0.00000000e+00  1.20000000e+00 -1.80206876e-05  1.80206876e-05  0.00000000e+00 
 2.80000000e-01  2.80000000e-01  1.18954118e+00  2.80000000e-01  0.00000000e+00  1.20000000e+00 -2.10915967e-05  2.10915967e-05  0.00000000e+00 
 2.90000000e-01  2.90000000e-01  1.18770806e+00  2.90000000e-01  0.00000000e+00  1.20000000e+00 -2.44683449e-05  2.44683449e-05  0.00000000e+00 
 3.00000000e-01  3.00000000e-01  1.18566557e+00  3.00000000e-01  0.00000000e+00  1.20000000e+00 -2.81497936e-05  2.81497936e-05  0.00000000e+00 
 3.10000000e-01  3.10000000e-01  1.18340391e+00  3.10000000e-01  0.00000000e+00  1.20000000e+00 -3.21326118e-05  3.21326118e-05  0.00000000e+00 
 3.20000000e-01  3.20000000e-01  1.18091293e+00  3.20000000e-01  0.00000000e+00  1.20000000e+00 -3.64116049e-05  3.64116049e-05  0.00000000e+00 
 3.30000000e-01  3.30000000e-01  1.17818183e+00  3.30000000e-01  0.00000000e+00  1.20000000e+00 -4.09799983e-05  4.09799983e-05  0.00000000e+00 
 3.40000000e-01  3.40000000e-01  1.17519884e+00  3.40000000e-01  0.00000000e+00  1.20000000e+00 -4.58296790e-05  4.58296790e-05  0.00000000e+00 
 3.50000000e-01  3.50000000e-01  1.17195090e+00  3.50000000e-01  0.00000000e+00  1.20000000e+00 -5.09513951e-05  5.09513951e-05  0.00000000e+00 
 3.60000000e-01  3.60000000e-01  1.16842325e+00  3.60000000e-01  0.00000000e+00  1.20000000e+00 -5.63349209e-05  5.63349209e-05  0.00000000e+00 
 3.70000000e-01  3.70000000e-01  1.16459896e+00  3.70000000e-01  0.00000000e+00  1.20000000e+00 -6.19691893e-05  6.19691893e-05  0.00000000e+00 
 3.80000000e-01  3.80000000e-01  1.16045840e+00  3.80000000e-01  0.00000000e+00  1.20000000e+00 -6.78423951e-05  6.78423951e-05  0.00000000e+00 
 3.90000000e-01  3.90000000e-01  1.15597856e+00  3.90000000e-01  0.00000000e+00  1.20000000e+00 -7.39420698e-05  7.39420698e-05  0.00000000e+00 
 4.00000000e-01  4.00000000e-01  1.15113218e+00  4.00000000e-01  0.00000000e+00  1.20000000e+00 -8.02551272e-05  8.02551272e-05  0.00000000e+00 
 4.10000000e-01  4.10000000e-01  1.14588668e+00  4.10000000e-01  0.00000000e+00  1.20000000e+00 -8.67678754e-05  8.67678754e-05  0.00000000e+00 
 4.20000000e-01  4.20000000e-01  1.14042908e+00  4.20000000e-01  0.00000000e+00  1.20000000e+00 -9.33757461e-05  9.33757461e-05  0.00000000e+00 
 4.30000000e-01  4.30000000e-01  1.13429236e+00  4.30000000e-01  0.00000000e+00  1.20000000e+00 -1.00252724e-04  1.00252724e-04  0.00000000e+00 
 4.40000000e-01  4.40000000e-01  1.12760975e+00  4.40000000e-01  0.00000000e+00  1.20000000e+00 -1.07283893e-04  1.07283893e-04  0.00000000e+00 
 4.50000000e-01  4.50000000e-01  1.12031506e+00  4.50000000e-01  0.00000000e+00  1.20000000e+00 -1.14453119e-04  1.14453119e-04  0.00000000e+00 
 4.60000000e-01  4.60000000e-01  1.11231633e+00  4.60000000e-01  0.00000000e+00  1.20000000e+00 -1.21742161e-04  1.21742161e-04  0.00000000e+00 
 4.70000000e-01  4.70000000e-01  1.10349377e+00  4.70000000e-01  0.00000000e+00  1.20000000e+00 -1.29130748e-04  1.29130748e-04  0.00000000e+00 
 4.80000000e-01  4.80000000e-01  1.09368758e+00  4.80000000e-01  0.00000000e+00  1.20000000e+00 -1.36595646e-04  1.36595646e-04  0.00000000e+00 
 4.90000000e-01  4.90000000e-01  1.08267750e+00  4.90000000e-01  0.00000000e+00  1.20000000e+00 -1.44109060e-04  1.44109060e-04  0.00000000e+00 
 5.00000000e-01  5.00000000e-01  1.07014707e+00  5.00000000e-01  0.00000000e+00  1.20000000e+00 -1.51635813e-04  1.51635813e-04  0.00000000e+00 
 5.10000000e-01  5.10000000e-01  1.05434367e+00  5.10000000e-01  0.00000000e+00  1.20000000e+00 -1.59087273e-04  1.59087273e-04  0.00000000e+00 
 5.20000000e-01  5.20000000e-01  1.03642335e+00  5.20000000e-01  0.00000000e+00  1.20000000e+00 -1.66420728e-04  1.66420728e-04  0.00000000e+00 
 5.30000000e-01  5.30000000e-01  1.01374743e+00  5.30000000e-01  0.00000000e+00  1.20000000e+00 -1.73483019e-04  1.73483019e-04  0.00000000e+00 
 5.40000000e-01  5.40000000e-01  9.82658303e-01  5.40000000e-01  0.00000000e+00  1.20000000e+00 -1.79975510e-04  1.79975510e-04  0.00000000e+00 
 5.50000000e-01  5.50000000e-01  9.34913088e-01  5.50000000e-01  0.00000000e+00  1.20000000e+00 -1.85230036e-04  1.85230036e-04  0.00000000e+00 
 5.60000000e-01  5.60000000e-01  8.59856221e-01  5.60000000e-01  0.00000000e+00  1.20000000e+00 -1.88332955e-04  1.88332955e-04  0.00000000e+00 
 5.70000000e-01  5.70000000e-01  7.65320530e-01  5.70000000e-01  0.00000000e+00  1.20000000e+00 -1.89734147e-04  1.89734147e-04  0.00000000e+00 
 5.80000000e-01  5.80000000e-01  6.64147984e-01  5.80000000e-01  0.00000000e+00  1.20000000e+00 -1.90307471e-04  1.90307471e-04  0.00000000e+00 
 5.90000000e-01  5.90000000e-01  5.61109546e-01  5.90000000e-01  0.00000000e+00  1.20000000e+00 -1.90305179e-04  1.90305179e-04  0.00000000e+00 
 6.00000000e-01  6.00000000e-01  4.58898330e-01  6.00000000e-01  0.00000000e+00  1.20000000e+00 -1.89746832e-04  1.89746832e-04  0.00000000e+00 
 6.10000000e-01  6.10000000e-01  3.61297106e-01  6.10000000e-01  0.00000000e+00  1.20000000e+00 -1.88453988e-04  1.88453988e-04  0.00000000e+00 
 6.20000000e-01  6.20000000e-01  2.78772560e-01  6.20000000e-01  0.00000000e+00  1.20000000e+00 -1.85684120e-04  1.85684120e-04  0.00000000e+00 
 6.30000000e-01  6.30000000e-01  2.24062158e-01  6.30000000e-01  0.00000000e+00  1.20000000e+00 -1.80561181e-04  1.80561181e-04  0.00000000e+00 
 6.40000000e-01  6.40000000e-01  1.89742086e-01  6.40000000e-01  0.00000000e+00  1.20000000e+00 -1.73834360e-04  1.73834360e-04  0.00000000e+00 
 6.50000000e-01  6.50000000e-01  1.65487007e-01  6.50000000e-01  0.00000000e+00  1.20000000e+00 -1.66404310e-04  1.66404310e-04  0.00000000e+00 
 6.60000000e-01  6.60000000e-01  1.46780301e-01  6.60000000e-01  0.00000000e+00  1.20000000e+00 -1.58665694e-04  1.58665694e-04  0.00000000e+00 
 6.70000000e-01  6.70000000e-01  1.31418054e-01  6.70000000e-01  0.00000000e+00  1.20000000e+00 -1.50813453e-04  1.50813453e-04  0.00000000e+00 
 6.80000000e-01  6.80000000e-01  1.18358830e-01  6.80000000e-01  0.00000000e+00  1.20000000e+00 -1.42945155e-04  1.42945155e-04  0.00000000e+00 
 6.90000000e-01  6.90000000e-01  1.06995709e-01  6.90000000e-01  0.00000000e+00  1.20000000e+00 -1.35121246e-04  1.35121246e-04  0.00000000e+00 
 7.00000000e-01  7.00000000e-01  9.69456578e-02  7.00000000e-01  0.00000000e+00  1.20000000e+00 -1.27383019e-04  1.27383019e-04  0.00000000e+00 
 7.10000000e-01  7.10000000e-01  8.79508837e-02  7.10000000e-01  0.00000000e+00  1.20000000e+00 -1.19761019e-04  1.19761019e-04  0.00000000e+00 
 7.20000000e-01  7.20000000e-01  7.98290229e-02  7.20000000e-01  0.00000000e+00  1.20000000e+00 -1.12279301e-04  1.12279301e-04  0.00000000e+00 
 7.30000000e-01  7.30000000e-01  7.24459807e-02  7.30000000e-01  0.00000000e+00  1.20000000e+00 -1.04957748e-04  1.04957748e-04  0.00000000e+00 
 7.40000000e-01  7.40000000e-01  6.57001105e-02  7.40000000e-01  0.00000000e+00  1.20000000e+00 -9.78134253e-05  9.78134253e-05  0.00000000e+00 
 7.50000000e-01  7.50000000e-01  5.95124719e-02  7.50000000e-01  0.00000000e+00  1.20000000e+00 -9.08614033e-05  9.08614033e-05  0.00000000e+00 
 7.60000000e-01  7.60000000e-01  5.38205439e-02  7.60000000e-01  0.00000000e+00  1.20000000e+00 -8.41152816e-05  8.41152816e-05  0.00000000e+00 
 7.70000000e-01  7.70000000e-01  4.85740025e-02  7.70000000e-01  0.00000000e+00  1.20000000e+00 -7.75875261e-05  7.75875261e-05  0.00000000e+00 
 7.80000000e-01  7.80000000e-01  4.37317871e-02  7.80000000e-01  0.00000000e+00  1.20000000e+00 -7.12896886e-05  7.12896886e-05  0.00000000e+00 
 7.90000000e-01  7.90000000e-01  3.92599996e-02  7.90000000e-01  0.00000000e+00  1.20000000e+00 -6.52325436e-05  6.52325436e-05  0.00000000e+00 
 8.00000000e-01  8.00000000e-01  3.51303603e-02  8.00000000e-01  0.00000000e+00  1.20000000e+00 -5.94261681e-05  5.94261681e-05  0.00000000e+00 
 8.10000000e-01  8.10000000e-01  3.13190434e-02  8.10000000e-01  0.00000000e+00  1.20000000e+00 -5.38799758e-05  5.38799758e-05  0.00000000e+00 
 8.20000000e-01  8.20000000e-01  2.78057799e-02  8.20000000e-01  0.00000000e+00  1.20000000e+00 -4.86027129e-05  4.86027129e-05  0.00000000e+00 
 8.30000000e-01  8.30000000e-01  2.45731482e-02  8.30000000e-01  0.00000000e+00  1.20000000e+00 -4.36024213e-05  4.36024213e-05  0.00000000e+00 
 8.40000000e-01  8.40000000e-01  2.16060002e-02  8.40000000e-01  0.00000000e+00  1.20000000e+00 -3.88863678e-05  3.88863678e-05  0.00000000e+00 
 8.50000000e-01  8.50000000e-01  1.88909842e-02  8.50000000e-01  0.00000000e+00  1.20000000e+00 -3.44609388e-05  3.44609388e-05  0.00000000e+00 
 8.60000000e-01  8.60000000e-01  1.64161356e-02  8.60000000e-01  0.00000000e+00  1.20000000e+00 -3.03314977e-05  3.03314977e-05  0.00000000e+00 
 8.70000000e-01  8.70000000e-01  1.41705155e-02  8.70000000e-01  0.00000000e+00  1.20000000e+00 -2.65022002e-05  2.65022002e-05  0.00000000e+00 
 8.80000000e-01  8.80000000e-01  1.21438789e-02  8.80000000e-01  0.00000000e+00  1.20000000e+00 -2.29757637e-05  2.29757637e-05  0.00000000e+00 
 8.90000000e-01  8.90000000e-01  1.03263642e-02  8.90000000e-01  0.00000000e+00  1.20000000e+00 -1.97531882e-05  1.97531882e-05  0.00000000e+00 
 9.00000000e-01  9.00000000e-01  8.70819439e-03  9.00000000e-01  0.00000000e+00  1.20000000e+00 -1.68334303e-05  1.68334303e-05  0.00000000e+00 
 9.10000000e-01  9.10000000e-01  7.27939259e-03  9.10000000e-01  0.00000000e+00  1.20000000e+00 -1.42130428e-05  1.42130428e-05  0.00000000e+00 
 9.20000000e-01  9.20000000e-01  6.02951749e-03  9.20000000e-01  0.00000000e+00  1.20000000e+00 -1.18858033e-05  1.18858033e-05  0.00000000e+00 
 9.30000000e-01  9.30000000e-01  4.94743789e-03  9.30000000e-01  0.00000000e+00  1.20000000e+00 -9.84237681e-06  9.84237681e-06  0.00000000e+00 
 9.40000000e-01  9.40000000e-01  4.02117280e-03  9.40000000e-01  0.00000000e+00  1.20000000e+00 -8.07007675e-06  8.07007675e-06  0.00000000e+00 
 9.50000000e-01  9.50000000e-01  3.23783143e-03  9.50000000e-01  0.00000000e+00  1.20000000e+00 -6.55280590e-06  6.55280590e-06  0.00000000e+00 
 9.60000000e-01  9.60000000e-01  2.58368550e-03  9.60000000e-01  0.00000000e+00  1.20000000e+00 -5.27125646e-06  5.27125646e-06  0.00000000e+00 
 9.70000000e-01  9.70000000e-01  2.04439174e-03  9.70000000e-01  0.00000000e+00  1.20000000e+00 -4.20342220e-06  4.20342220e-06  0.00000000e+00 
 9.80000000e-01  9.80000000e-01  1.60535425e-03  9.80000000e-01  0.00000000e+00  1.20000000e+00 -3.32541671e-06  3.32541671e-06  0.00000000e+00 
 9.90000000e-01  9.90000000e-01  1.25218176e-03  9.90000000e-01  0.00000000e+00  1.20000000e+00 -2.61251573e-06  2.61251573e-06  0.00000000e+00 
 1.00000000e+00  1.00000000e+00  9.71166362e-04  1.00000000e+00  0.00000000e+00  1.20000000e+00 -2.04027615e-06  2.04027615e-06  0.00000000e+00 
 1.01000000e+00  1.01000000e+00  7.49703297e-04  1.01000000e+00  0.00000000e+00  1.20000000e+00 -1.58555952e-06  1.58555952e-06  0.00000000e+00 
 1.02000000e+00  1.02000000e+00  5.76588946e-04  1.02000000e+00  0.00000000e+00  1.20000000e+00 -1.22731810e-06  1.22731810e-06  0.00000000e+00 
 1.03000000e+00  1.03000000e+00  4.42169564e-04  1.03000000e+00  0.00000000e+00  1.20000000e+00 -9.47070762e-07  9.47070762e-07  0.00000000e+00 
 1.04000000e+00  1.04000000e+00  3.38349583e-04  1.04000000e+00  0.00000000e+00  1.20000000e+00 -7.29073981e-07  7.29073981e-07  0.00000000e+00 
 1.05000000e+00  1.05000000e+00  2.58493035e-04  1.05000000e+00  0.00000000e+00  1.20000000e+00 -5.60248635e-07  5.60248635e-07  0.00000000e+00 
 1.06000000e+00  1.06000000e+00  1.97259964e-04  1.06000000e+00  0.00000000e+00  1.20000000e+00 -4.29946210e-07  4.29946210e-07  0.00000000e+00 
 1.07000000e+00  1.07000000e+00  1.50415416e-04  1.07000000e+00  0.00000000e+00  1.20000000e+00 -3.29633345e-07  3.29633345e-07  0.00000000e+00 
 1.08000000e+00  1.08000000e+00  1.14638220e-04  1.08000000e+00  0.00000000e+00  1.20000000e+00 -2.52554505e-07  2.52554505e-07  0.00000000e+00 
 1.09000000e+00  1.09000000e+00  8.73458191e-05  1.09000000e+00  0.00000000e+00  1.20000000e+00 -1.93410753e-07  1.93410753e-07  0.00000000e+00 
 1.10000000e+00  1.10000000e+00  6.65426748e-05  1.10000000e+00  0.00000000e+00  1.20000000e+00 -1.48074369e-07  1.48074369e-07  0.00000000e+00 
 1.11000000e+00  1.11000000e+00  5.06940264e-05  1.11000000e+00  0.00000000e+00  1.20000000e+00 -1.13346507e-07  1.13346507e-07  0.00000000e+00 
 1.12000000e+00  1.12000000e+00  3.86235198e-05  1.12000000e+00  0.00000000e+00  1.20000000e+00 -8.67576149e-08  8.67576149e-08  0.00000000e+00 
 1.13000000e+00  1.13000000e+00  2.94317358e-05  1.13000000e+00  0.00000000e+00  1.20000000e+00 -6.64065145e-08  6.64065145e-08  0.00000000e+00 
 1.14000000e+00  1.14000000e+00  2.24322066e-05  1.14000000e+00  0.00000000e+00  1.20000000e+00 -5.08326073e-08  5.08326073e-08  0.00000000e+00 
 1.15000000e+00  1.15000000e+00  1.71016430e-05  1.15000000e+00  0.00000000e+00  1.20000000e+00 -3.89154549e-08  3.89154549e-08  0.00000000e+00 
 1.16000000e+00  1.16000000e+00  1.30414806e-05  1.16000000e+00  0.00000000e+00  1.20000000e+00 -2.97964872e-08  2.97964872e-08  0.00000000e+00 
 1.17000000e+00  1.17000000e+00  9.94831698e-06  1.17000000e+00  0.00000000e+00  1.20000000e+00 -2.28183008e-08  2.28183008e-08  0.00000000e+00 
 1.18000000e+00  1.18000000e+00  7.59126452e-06  1.18000000e+00  0.00000000e+00  1.20000000e+00 -1.74777900e-08  1.74777900e-08  0.00000000e+00 
 1.19000000e+00  1.19000000e+00  5.79464598e-06  1.19000000e+00  0.00000000e+00  1.20000000e+00 -1.33900652e-08  1.33900652e-08  0.00000000e+00 
 1.20000000e+00  1.20000000e+00  4.42479602e-06  1.20000000e+00  0.00000000e+00  1.20000000e+00 -1.02607371e-08  1.02607371e-08  0.00000000e+00 
