 v-sweep         b               c               n1#bi           n1#bp           n1#ci           n1#ei           n1#si           n1#tnode        n1#xf1          n1#xf2          v-sweep         vb#branch       vc#branch      
 0.00000000e+00  7.60000000e-01  0.00000000e+00  7.59952117e-01  7.59980442e-01  1.42876505e-05  2.81126986e-06  0.00000000e+00  1.63113660e-09  0.00000000e+00  0.00000000e+00  0.00000000e+00 -7.61569778e-06  5.75426829e-06 
 1.00000000e-02  7.60000000e-01  1.00000000e-02  7.59963058e-01  7.59984759e-01  9.78896023e-03  1.37328380e-04  0.00000000e+00  9.59132016e-04  0.00000000e+00  0.00000000e+00  1.00000000e-02 -5.93468461e-06 -8.49950528e-05 
 2.00000000e-02  7.60000000e-01  2.00000000e-02  7.59971107e-01  7.59987933e-01  1.96331389e-02  2.30238847e-04  0.00000000e+00  3.25863936e-03  0.00000000e+00  0.00000000e+00  2.00000000e-02 -4.69869325e-06 -1.47751242e-04 
 3.00000000e-02  7.60000000e-01  3.00000000e-02  7.59977077e-01  7.59990287e-01  2.95258633e-02  2.94102222e-04  0.00000000e+00  6.28800775e-03  0.00000000e+00  0.00000000e+00  3.00000000e-02 -3.78225673e-06 -1.90955927e-04 
 4.00000000e-02  7.60000000e-01  4.00000000e-02  7.59981568e-01  7.59992057e-01  3.94522264e-02  3.37846872e-04  0.00000000e+00  9.67891534e-03  0.00000000e+00  0.00000000e+00  4.00000000e-02 -3.09305225e-06 -2.20612834e-04 
 5.00000000e-02  7.60000000e-01  5.00000000e-02  7.59984995e-01  7.59993407e-01  4.94017706e-02  3.67738059e-04  0.00000000e+00  1.32191384e-02  0.00000000e+00  0.00000000e+00  5.00000000e-02 -2.56741227e-06 -2.40933732e-04 
 6.00000000e-02  7.60000000e-01  6.00000000e-02  7.59987630e-01  7.59994444e-01  5.93672303e-02  3.88132179e-04  0.00000000e+00  1.67932249e-02  0.00000000e+00  0.00000000e+00  6.00000000e-02 -2.16351363e-06 -2.54844723e-04 
 7.00000000e-02  7.60000000e-01  7.00000000e-02  7.59989657e-01  7.59995242e-01  6.93435908e-02  4.02036762e-04  0.00000000e+00  2.03435265e-02  0.00000000e+00  0.00000000e+00  7.00000000e-02 -1.85290725e-06 -2.64365507e-04 
 8.00000000e-02  7.60000000e-01  8.00000000e-02  7.59991213e-01  7.59995854e-01  7.93274052e-02  4.11516659e-04  0.00000000e+00  2.38455616e-02  0.00000000e+00  0.00000000e+00  8.00000000e-02 -1.61455067e-06 -2.70884261e-04 
 9.00000000e-02  7.60000000e-01  9.00000000e-02  7.59992404e-01  7.59996322e-01  8.93163112e-02  4.17984112e-04  0.00000000e+00  2.72929200e-02  0.00000000e+00  0.00000000e+00  9.00000000e-02 -1.43208620e-06 -2.75352408e-04 
 1.00000000e-01  7.60000000e-01  1.00000000e-01  7.59993315e-01  7.59996680e-01  9.93086928e-02  4.22402641e-04  0.00000000e+00  3.06882969e-02  0.00000000e+00  0.00000000e+00  1.00000000e-01 -1.29267645e-06 -2.78420758e-04 
 1.10000000e-01  7.60000000e-01  1.10000000e-01  7.59994010e-01  7.59996953e-01  1.09303446e-01  4.25428549e-04  0.00000000e+00  3.40383572e-02  0.00000000e+00  0.00000000e+00  1.10000000e-01 -1.18630208e-06 -2.80533897e-04 
 1.20000000e-01  7.60000000e-01  1.20000000e-01  7.59994540e-01  7.59997162e-01  1.19299818e-01  4.27508376e-04  0.00000000e+00  3.73509311e-02  0.00000000e+00  0.00000000e+00  1.20000000e-01 -1.10520096e-06 -2.81995267e-04 
 1.30000000e-01  7.60000000e-01  1.30000000e-01  7.59994944e-01  7.59997320e-01  1.29297294e-01  4.28945688e-04  0.00000000e+00  4.06335894e-02  0.00000000e+00  0.00000000e+00  1.30000000e-01 -1.04339517e-06 -2.83011860e-04 
 1.40000000e-01  7.60000000e-01  1.40000000e-01  7.59995252e-01  7.59997441e-01  1.39295524e-01  4.29946731e-04  0.00000000e+00  4.38930080e-02  0.00000000e+00  0.00000000e+00  1.40000000e-01 -9.96300413e-07 -2.83724831e-04 
 1.50000000e-01  7.60000000e-01  1.50000000e-01  7.59995486e-01  7.59997534e-01  1.49294269e-01  4.30651558e-04  0.00000000e+00  4.71347650e-02  0.00000000e+00  0.00000000e+00  1.50000000e-01 -9.60411624e-07 -2.84230432e-04 
 1.60000000e-01  7.60000000e-01  1.60000000e-01  7.59995665e-01  7.59997604e-01  1.59293365e-01  4.31155240e-04  0.00000000e+00  5.03633588e-02  0.00000000e+00  0.00000000e+00  1.60000000e-01 -9.33054583e-07 -2.84594292e-04 
 1.70000000e-01  7.60000000e-01  1.70000000e-01  7.59995801e-01  7.59997657e-01  1.69292703e-01  4.31522291e-04  0.00000000e+00  5.35823271e-02  0.00000000e+00  0.00000000e+00  1.70000000e-01 -9.12192048e-07 -2.84861173e-04 
 1.80000000e-01  7.60000000e-01  1.80000000e-01  7.59995905e-01  7.59997698e-01  1.79292206e-01  4.31796475e-04  0.00000000e+00  5.67944006e-02  0.00000000e+00  0.00000000e+00  1.80000000e-01 -8.96273684e-07 -2.85061607e-04 
 1.90000000e-01  7.60000000e-01  1.90000000e-01  7.59995984e-01  7.59997729e-01  1.89291821e-01  4.32007479e-04  0.00000000e+00  6.00016565e-02  0.00000000e+00  0.00000000e+00  1.90000000e-01 -8.84120533e-07 -2.85216434e-04 
 2.00000000e-01  7.60000000e-01  2.00000000e-01  7.59996045e-01  7.59997753e-01  1.99291515e-01  4.32175434e-04  0.00000000e+00  6.32056567e-02  0.00000000e+00  0.00000000e+00  2.00000000e-01 -8.74836423e-07 -2.85339881e-04 
 2.10000000e-01  7.60000000e-01  2.10000000e-01  7.59996091e-01  7.59997772e-01  2.09291262e-01  4.32313990e-04  0.00000000e+00  6.64075640e-02  0.00000000e+00  0.00000000e+00  2.10000000e-01 -8.67740240e-07 -2.85441671e-04 
 2.20000000e-01  7.60000000e-01  2.20000000e-01  7.59996131e-01  7.59997787e-01  2.19291031e-01  4.32441220e-04  0.00000000e+00  6.96087326e-02  0.00000000e+00  0.00000000e+00  2.20000000e-01 -8.61553976e-07 -2.85535051e-04 
 2.30000000e-01  7.60000000e-01  2.30000000e-01  7.59996157e-01  7.59997798e-01  2.29290846e-01  4.32543039e-04  0.00000000e+00  7.28085200e-02  0.00000000e+00  0.00000000e+00  2.30000000e-01 -8.57583488e-07 -2.85609386e-04 
 2.40000000e-01  7.60000000e-01  2.40000000e-01  7.59996176e-01  7.59997805e-01  2.39290679e-01  4.32636135e-04  0.00000000e+00  7.60082405e-02  0.00000000e+00  0.00000000e+00  2.40000000e-01 -8.54547349e-07 -2.85677012e-04 
 2.50000000e-01  7.60000000e-01  2.50000000e-01  7.59996191e-01  7.59997811e-01  2.49290523e-01  4.32723117e-04  0.00000000e+00  7.92082061e-02  0.00000000e+00  0.00000000e+00  2.50000000e-01 -8.52227868e-07 -2.85739873e-04 
 2.60000000e-01  7.60000000e-01  2.60000000e-01  7.59996202e-01  7.59997816e-01  2.59290376e-01  4.32805760e-04  0.00000000e+00  8.24086415e-02  0.00000000e+00  0.00000000e+00  2.60000000e-01 -8.50459115e-07 -2.85799311e-04 
 2.70000000e-01  7.60000000e-01  2.70000000e-01  7.59996211e-01  7.59997819e-01  2.69290234e-01  4.32885272e-04  0.00000000e+00  8.56097072e-02  0.00000000e+00  0.00000000e+00  2.70000000e-01 -8.49114449e-07 -2.85856253e-04 
 2.80000000e-01  7.60000000e-01  2.80000000e-01  7.59996217e-01  7.59997822e-01  2.79290098e-01  4.32962478e-04  0.00000000e+00  8.88115175e-02  0.00000000e+00  0.00000000e+00  2.80000000e-01 -8.48097076e-07 -2.85911342e-04 
 2.90000000e-01  7.60000000e-01  2.90000000e-01  7.59996222e-01  7.59997824e-01  2.89289965e-01  4.33037945e-04  0.00000000e+00  9.20141530e-02  0.00000000e+00  0.00000000e+00  2.90000000e-01 -8.47332897e-07 -2.85965028e-04 
 3.00000000e-01  7.60000000e-01  3.00000000e-01  7.59996225e-01  7.59997825e-01  2.99289834e-01  4.33112064e-04  0.00000000e+00  9.52176702e-02  0.00000000e+00  0.00000000e+00  3.00000000e-01 -8.46765080e-07 -2.86017627e-04 
 3.10000000e-01  7.60000000e-01  3.10000000e-01  7.59996228e-01  7.59997826e-01  3.09289706e-01  4.33185107e-04  0.00000000e+00  9.84221083e-02  0.00000000e+00  0.00000000e+00  3.10000000e-01 -8.46349953e-07 -2.86069362e-04 
 3.20000000e-01  7.60000000e-01  3.20000000e-01  7.59996229e-01  7.59997827e-01  3.19289580e-01  4.33257264e-04  0.00000000e+00  1.01627494e-01  0.00000000e+00  0.00000000e+00  3.20000000e-01 -8.46053887e-07 -2.86120393e-04 
 3.30000000e-01  7.60000000e-01  3.30000000e-01  7.59996230e-01  7.59997828e-01  3.29289455e-01  4.33328673e-04  0.00000000e+00  1.04833847e-01  0.00000000e+00  0.00000000e+00  3.30000000e-01 -8.45850926e-07 -2.86170837e-04 
 3.40000000e-01  7.60000000e-01  3.40000000e-01  7.59996231e-01  7.59997828e-01  3.39289331e-01  4.33399431e-04  0.00000000e+00  1.08041177e-01  0.00000000e+00  0.00000000e+00  3.40000000e-01 -8.45720989e-07 -2.86220780e-04 
 3.50000000e-01  7.60000000e-01  3.50000000e-01  7.59996231e-01  7.59997828e-01  3.49289208e-01  4.33469613e-04  0.00000000e+00  1.11249493e-01  0.00000000e+00  0.00000000e+00  3.50000000e-01 -8.45648503e-07 -2.86270285e-04 
 3.60000000e-01  7.60000000e-01  3.60000000e-01  7.59996231e-01  7.59997828e-01  3.59289086e-01  4.33539274e-04  0.00000000e+00  1.14458800e-01  0.00000000e+00  0.00000000e+00  3.60000000e-01 -8.45621357e-07 -2.86319401e-04 
 3.70000000e-01  7.60000000e-01  3.70000000e-01  7.59996230e-01  7.59997828e-01  3.69288965e-01  4.33608458e-04  0.00000000e+00  1.17669100e-01  0.00000000e+00  0.00000000e+00  3.70000000e-01 -8.45630107e-07 -2.86368167e-04 
 3.80000000e-01  7.60000000e-01  3.80000000e-01  7.59996230e-01  7.59997828e-01  3.79288845e-01  4.33677200e-04  0.00000000e+00  1.20880393e-01  0.00000000e+00  0.00000000e+00  3.80000000e-01 -8.45667372e-07 -2.86416614e-04 
 3.90000000e-01  7.60000000e-01  3.90000000e-01  7.59996229e-01  7.59997828e-01  3.89288726e-01  4.33745528e-04  0.00000000e+00  1.24092681e-01  0.00000000e+00  0.00000000e+00  3.90000000e-01 -8.45727360e-07 -2.86464766e-04 
 4.00000000e-01  7.60000000e-01  4.00000000e-01  7.59996228e-01  7.59997828e-01  3.99288607e-01  4.33813469e-04  0.00000000e+00  1.27305962e-01  0.00000000e+00  0.00000000e+00  4.00000000e-01 -8.45805520e-07 -2.86512645e-04 
 4.10000000e-01  7.60000000e-01  4.10000000e-01  7.59996227e-01  7.59997828e-01  4.09288489e-01  4.33881042e-04  0.00000000e+00  1.30520235e-01  0.00000000e+00  0.00000000e+00  4.10000000e-01 -8.45898259e-07 -2.86560268e-04 
 4.20000000e-01  7.60000000e-01  4.20000000e-01  7.59996226e-01  7.59997827e-01  4.19288372e-01  4.33948269e-04  0.00000000e+00  1.33735499e-01  0.00000000e+00  0.00000000e+00  4.20000000e-01 -8.46002738e-07 -2.86607651e-04 
 4.30000000e-01  7.60000000e-01  4.30000000e-01  7.59996225e-01  7.59997827e-01  4.29288255e-01  4.34015164e-04  0.00000000e+00  1.36951753e-01  0.00000000e+00  0.00000000e+00  4.30000000e-01 -8.46116700e-07 -2.86654807e-04 
 4.40000000e-01  7.60000000e-01  4.40000000e-01  7.59996224e-01  7.59997827e-01  4.39288139e-01  4.34081746e-04  0.00000000e+00  1.40168994e-01  0.00000000e+00  0.00000000e+00  4.40000000e-01 -8.46238350e-07 -2.86701750e-04 
 4.50000000e-01  7.60000000e-01  4.50000000e-01  7.59996223e-01  7.59997826e-01  4.49288023e-01  4.34148027e-04  0.00000000e+00  1.43387222e-01  0.00000000e+00  0.00000000e+00  4.50000000e-01 -8.46366255e-07 -2.86748489e-04 
 4.60000000e-01  7.60000000e-01  4.60000000e-01  7.59996222e-01  7.59997826e-01  4.59287907e-01  4.34214022e-04  0.00000000e+00  1.46606434e-01  0.00000000e+00  0.00000000e+00  4.60000000e-01 -8.46499266e-07 -2.86795035e-04 
 4.70000000e-01  7.60000000e-01  4.70000000e-01  7.59996220e-01  7.59997826e-01  4.69287793e-01  4.34279743e-04  0.00000000e+00  1.49826629e-01  0.00000000e+00  0.00000000e+00  4.70000000e-01 -8.46636458e-07 -2.86841397e-04 
 4.80000000e-01  7.60000000e-01  4.80000000e-01  7.59996219e-01  7.59997825e-01  4.79287678e-01  4.34345202e-04  0.00000000e+00  1.53047806e-01  0.00000000e+00  0.00000000e+00  4.80000000e-01 -8.46777086e-07 -2.86887584e-04 
 4.90000000e-01  7.60000000e-01  4.90000000e-01  7.59996218e-01  7.59997825e-01  4.89287564e-01  4.34410409e-04  0.00000000e+00  1.56269962e-01  0.00000000e+00  0.00000000e+00  4.90000000e-01 -8.46920545e-07 -2.86933604e-04 
 5.00000000e-01  7.60000000e-01  5.00000000e-01  7.59996217e-01  7.59997825e-01  4.99287450e-01  4.34475377e-04  0.00000000e+00  1.59493097e-01  0.00000000e+00  0.00000000e+00  5.00000000e-01 -8.47066344e-07 -2.86979463e-04 
 5.10000000e-01  7.60000000e-01  5.10000000e-01  7.59996215e-01  7.59997824e-01  5.09287337e-01  4.34540113e-04  0.00000000e+00  1.62717209e-01  0.00000000e+00  0.00000000e+00  5.10000000e-01 -8.47214080e-07 -2.87025170e-04 
 5.20000000e-01  7.60000000e-01  5.20000000e-01  7.59996214e-01  7.59997824e-01  5.19287224e-01  4.34604628e-04  0.00000000e+00  1.65942297e-01  0.00000000e+00  0.00000000e+00  5.20000000e-01 -8.47363422e-07 -2.87070730e-04 
 5.30000000e-01  7.60000000e-01  5.30000000e-01  7.59996213e-01  7.59997823e-01  5.29287112e-01  4.34668930e-04  0.00000000e+00  1.69168359e-01  0.00000000e+00  0.00000000e+00  5.30000000e-01 -8.47514096e-07 -2.87116149e-04 
 5.40000000e-01  7.60000000e-01  5.40000000e-01  7.59996212e-01  7.59997823e-01  5.39286999e-01  4.34733028e-04  0.00000000e+00  1.72395394e-01  0.00000000e+00  0.00000000e+00  5.40000000e-01 -8.47665871e-07 -2.87161434e-04 
 5.50000000e-01  7.60000000e-01  5.50000000e-01  7.59996210e-01  7.59997823e-01  5.49286887e-01  4.34796930e-04  0.00000000e+00  1.75623401e-01  0.00000000e+00  0.00000000e+00  5.50000000e-01 -8.47818554e-07 -2.87206590e-04 
 5.60000000e-01  7.60000000e-01  5.60000000e-01  7.59996209e-01  7.59997822e-01  5.59286776e-01  4.34860642e-04  0.00000000e+00  1.78852380e-01  0.00000000e+00  0.00000000e+00  5.60000000e-01 -8.47971979e-07 -2.87251622e-04 
 5.70000000e-01  7.60000000e-01  5.70000000e-01  7.59996208e-01  7.59997822e-01  5.69286665e-01  4.34924173e-04  0.00000000e+00  1.82082328e-01  0.00000000e+00  0.00000000e+00  5.70000000e-01 -8.48126000e-07 -2.87296534e-04 
 5.80000000e-01  7.60000000e-01  5.80000000e-01  7.59996206e-01  7.59997821e-01  5.79286554e-01  4.34987529e-04  0.00000000e+00  1.85313245e-01  0.00000000e+00  0.00000000e+00  5.80000000e-01 -8.48280489e-07 -2.87341332e-04 
 5.90000000e-01  7.60000000e-01  5.90000000e-01  7.59996205e-01  7.59997821e-01  5.89286443e-01  4.35050717e-04  0.00000000e+00  1.88545131e-01  0.00000000e+00  0.00000000e+00  5.90000000e-01 -8.48435328e-07 -2.87386019e-04 
 6.00000000e-01  7.60000000e-01  6.00000000e-01  7.59996204e-01  7.59997821e-01  5.99286332e-01  4.35113742e-04  0.00000000e+00  1.91777983e-01  0.00000000e+00  0.00000000e+00  6.00000000e-01 -8.48590408e-07 -2.87430601e-04 
 6.10000000e-01  7.60000000e-01  6.10000000e-01  7.59996202e-01  7.59997820e-01  6.09286222e-01  4.35176610e-04  0.00000000e+00  1.95011802e-01  0.00000000e+00  0.00000000e+00  6.10000000e-01 -8.48745624e-07 -2.87475080e-04 
 6.20000000e-01  7.60000000e-01  6.20000000e-01  7.59996201e-01  7.59997820e-01  6.19286112e-01  4.35239327e-04  0.00000000e+00  1.98246587e-01  0.00000000e+00  0.00000000e+00  6.20000000e-01 -8.48900873e-07 -2.87519461e-04 
 6.30000000e-01  7.60000000e-01  6.30000000e-01  7.59996200e-01  7.59997819e-01  6.29286002e-01  4.35301899e-04  0.00000000e+00  2.01482336e-01  0.00000000e+00  0.00000000e+00  6.30000000e-01 -8.49056051e-07 -2.87563747e-04 
 6.40000000e-01  7.60000000e-01  6.40000000e-01  7.59996199e-01  7.59997819e-01  6.39285893e-01  4.35364330e-04  0.00000000e+00  2.04719050e-01  0.00000000e+00  0.00000000e+00  6.40000000e-01 -8.49211050e-07 -2.87607942e-04 
 6.50000000e-01  7.60000000e-01  6.50000000e-01  7.59996197e-01  7.59997819e-01  6.49285784e-01  4.35426625e-04  0.00000000e+00  2.07956727e-01  0.00000000e+00  0.00000000e+00  6.50000000e-01 -8.49365756e-07 -2.87652048e-04 
 6.60000000e-01  7.60000000e-01  6.60000000e-01  7.59996196e-01  7.59997818e-01  6.59285674e-01  4.35488789e-04  0.00000000e+00  2.11195367e-01  0.00000000e+00  0.00000000e+00  6.60000000e-01 -8.49520047e-07 -2.87696070e-04 
 6.70000000e-01  7.60000000e-01  6.70000000e-01  7.59996195e-01  7.59997818e-01  6.69285566e-01  4.35550825e-04  0.00000000e+00  2.14434970e-01  0.00000000e+00  0.00000000e+00  6.70000000e-01 -8.49673793e-07 -2.87740011e-04 
 6.80000000e-01  7.60000000e-01  6.80000000e-01  7.59996193e-01  7.59997817e-01  6.79285457e-01  4.35612740e-04  0.00000000e+00  2.17675534e-01  0.00000000e+00  0.00000000e+00  6.80000000e-01 -8.49826849e-07 -2.87783872e-04 
 6.90000000e-01  7.60000000e-01  6.90000000e-01  7.59996192e-01  7.59997817e-01  6.89285348e-01  4.35674535e-04  0.00000000e+00  2.20917060e-01  0.00000000e+00  0.00000000e+00  6.90000000e-01 -8.49979059e-07 -2.87827657e-04 
 7.00000000e-01  7.60000000e-01  7.00000000e-01  7.59996191e-01  7.59997817e-01  6.99285240e-01  4.35736216e-04  0.00000000e+00  2.24159548e-01  0.00000000e+00  0.00000000e+00  7.00000000e-01 -8.50130250e-07 -2.87871369e-04 
 7.10000000e-01  7.60000000e-01  7.10000000e-01  7.59996190e-01  7.59997816e-01  7.09285132e-01  4.35797786e-04  0.00000000e+00  2.27402996e-01  0.00000000e+00  0.00000000e+00  7.10000000e-01 -8.50280234e-07 -2.87915011e-04 
 7.20000000e-01  7.60000000e-01  7.20000000e-01  7.59996188e-01  7.59997816e-01  7.19285024e-01  4.35859248e-04  0.00000000e+00  2.30647405e-01  0.00000000e+00  0.00000000e+00  7.20000000e-01 -8.50428801e-07 -2.87958584e-04 
 7.30000000e-01  7.60000000e-01  7.30000000e-01  7.59996187e-01  7.59997816e-01  7.29284916e-01  4.35920606e-04  0.00000000e+00  2.33892774e-01  0.00000000e+00  0.00000000e+00  7.30000000e-01 -8.50575722e-07 -2.88002092e-04 
 7.40000000e-01  7.60000000e-01  7.40000000e-01  7.59996186e-01  7.59997815e-01  7.39284808e-01  4.35981863e-04  0.00000000e+00  2.37139104e-01  0.00000000e+00  0.00000000e+00  7.40000000e-01 -8.50720741e-07 -2.88045536e-04 
 7.50000000e-01  7.60000000e-01  7.50000000e-01  7.59996185e-01  7.59997815e-01  7.49284701e-01  4.36043023e-04  0.00000000e+00  2.40386394e-01  0.00000000e+00  0.00000000e+00  7.50000000e-01 -8.50863574e-07 -2.88088920e-04 
 7.60000000e-01  7.60000000e-01  7.60000000e-01  7.59996184e-01  7.59997814e-01  7.59284594e-01  4.36104088e-04  0.00000000e+00  2.43634644e-01  0.00000000e+00  0.00000000e+00  7.60000000e-01 -8.51003905e-07 -2.88132245e-04 
 7.70000000e-01  7.60000000e-01  7.70000000e-01  7.59996183e-01  7.59997814e-01  7.69284486e-01  4.36165061e-04  0.00000000e+00  2.46883854e-01  0.00000000e+00  0.00000000e+00  7.70000000e-01 -8.51141383e-07 -2.88175514e-04 
 7.80000000e-01  7.60000000e-01  7.80000000e-01  7.59996181e-01  7.59997814e-01  7.79284379e-01  4.36225946e-04  0.00000000e+00  2.50134025e-01  0.00000000e+00  0.00000000e+00  7.80000000e-01 -8.51275623e-07 -2.88218729e-04 
 7.90000000e-01  7.60000000e-01  7.90000000e-01  7.59996180e-01  7.59997813e-01  7.89284272e-01  4.36286744e-04  0.00000000e+00  2.53385156e-01  0.00000000e+00  0.00000000e+00  7.90000000e-01 -8.51406198e-07 -2.88261893e-04 
 8.00000000e-01  7.60000000e-01  8.00000000e-01  7.59996179e-01  7.59997813e-01  7.99284166e-01  4.36347458e-04  0.00000000e+00  2.56637248e-01  0.00000000e+00  0.00000000e+00  8.00000000e-01 -8.51532644e-07 -2.88305007e-04 
 8.10000000e-01  7.60000000e-01  8.10000000e-01  7.59996178e-01  7.59997813e-01  8.09284059e-01  4.36408092e-04  0.00000000e+00  2.59890301e-01  0.00000000e+00  0.00000000e+00  8.10000000e-01 -8.51654450e-07 -2.88348073e-04 
 8.20000000e-01  7.60000000e-01  8.20000000e-01  7.59996177e-01  7.59997812e-01  8.19283952e-01  4.36468647e-04  0.00000000e+00  2.63144316e-01  0.00000000e+00  0.00000000e+00  8.20000000e-01 -8.51771060e-07 -2.88391094e-04 
 8.30000000e-01  7.60000000e-01  8.30000000e-01  7.59996176e-01  7.59997812e-01  8.29283846e-01  4.36529125e-04  0.00000000e+00  2.66399293e-01  0.00000000e+00  0.00000000e+00  8.30000000e-01 -8.51881868e-07 -2.88434072e-04 
 8.40000000e-01  7.60000000e-01  8.40000000e-01  7.59996175e-01  7.59997812e-01  8.39283739e-01  4.36589530e-04  0.00000000e+00  2.69655233e-01  0.00000000e+00  0.00000000e+00  8.40000000e-01 -8.51986215e-07 -2.88477010e-04 
 8.50000000e-01  7.60000000e-01  8.50000000e-01  7.59996174e-01  7.59997812e-01  8.49283633e-01  4.36649862e-04  0.00000000e+00  2.72912137e-01  0.00000000e+00  0.00000000e+00  8.50000000e-01 -8.52083386e-07 -2.88519908e-04 
 8.60000000e-01  7.60000000e-01  8.60000000e-01  7.59996174e-01  7.59997811e-01  8.59283527e-01  4.36710125e-04  0.00000000e+00  2.76170006e-01  0.00000000e+00  0.00000000e+00  8.60000000e-01 -8.52172605e-07 -2.88562770e-04 
